(1672162936.617590) can0 0C9#0000000700000000
(1672162936.617787) can0 0C1#0000000000000000
(1672162936.618035) can0 0C5#0000000000000000
(1672162936.618199) can0 0F1#00040040
(1672162936.618431) can0 184#000000000000
(1672162936.618666) can0 191#060008E108E10000
(1672162936.618888) can0 1A1#0010000000000000
(1672162936.619103) can0 1C7#0FFF300103FF3F
(1672162936.619307) can0 1CD#87FF07FF7F
(1672162936.619564) can0 1C3#0600060000000000
(1672162936.619787) can0 1E5#46FD17A00002E800
(1672162936.620026) can0 1E9#0003000C00030000
(1672162936.620283) can0 1ED#0000000000000800
(1672162936.620455) can0 1E1#0000140000
(1672162936.620644) can0 1EF#00000000
(1672162936.620816) can0 0C7#03FE0000
(1672162936.621066) can0 0F9#00004000000000FF
(1672162936.621289) can0 189#8FFF0FFF2FFF00FF
(1672162936.621615) can0 199#8FFF0E70F18E00FF
(1672162936.622358) can0 1CB#100000
(1672162936.622697) can0 1EB#0000
(1672162936.627588) can0 0C9#0000000A00000000
(1672162936.628004) can0 0C1#1000000010000000
(1672162936.628007) can0 0C5#1000000010000000
(1672162936.628207) can0 0F1#1C040040
(1672162936.628455) can0 191#060008E108E10000
(1672162936.628697) can0 19D#C0003FFD000000FF
(1672162936.628916) can0 1E5#46FD17C00002E700
(1672162936.629091) can0 1AF#000000
(1672162936.629339) can0 1ED#0000000000000800
(1672162936.629565) can0 1EF#00000000
(1672162936.629728) can0 1F5#0F0F002100000300
(1672162936.629934) can0 2F9#1B000F0000
(1672162936.630107) can0 348#00000000
(1672162936.630281) can0 34A#00000000
(1672162936.630394) can0 1F3#0000
(1672162936.633314) can0 0C7#03FE0000
(1672162936.633565) can0 0F9#00004000000000FF
(1672162936.633763) can0 189#CFFF0FFF2FFE00FF
(1672162936.634001) can0 199#CFFF0E70F18D00FF
(1672162936.635168) can0 1EB#0000
(1672162936.637567) can0 0C9#0000000D00000000
(1672162936.637819) can0 0C1#2000000020000000
(1672162936.638050) can0 0C5#2000000020000000
(1672162936.638232) can0 0F1#28040040
(1672162936.638430) can0 184#0001000001FF
(1672162936.638664) can0 191#060008E108E10000
(1672162936.638914) can0 1A1#0010000000000000
(1672162936.639134) can0 1C7#0FFF700003FF3F
(1672162936.639334) can0 1CD#C7FF07FE7F
(1672162936.639565) can0 1C3#0600060000000000
(1672162936.639812) can0 1E5#46FD17E00002E600
(1672162936.640062) can0 1E9#0001000C00030000
(1672162936.640309) can0 1ED#0000000000000800
(1672162936.640473) can0 1EF#00000000
(1672162936.640710) can0 2C3#860006C206C2C000
(1672162936.640838) can0 334#0000
(1672162936.641086) can0 3ED#8000000000FF0000
(1672162936.642369) can0 1CB#100000
(1672162936.645792) can0 0C7#03FE0000
(1672162936.646072) can0 0F9#00004000000000FF
(1672162936.646291) can0 189#0FFF0FFF300100FF
(1672162936.646565) can0 199#0FFF0E70F19000FF
(1672162936.647586) can0 0C9#0000000000000000
(1672162936.647838) can0 0C1#3000000030000000
(1672162936.648086) can0 0C5#3000000030000000
(1672162936.648258) can0 0F1#34040040
(1672162936.648472) can0 191#060008E108E10000
(1672162936.648717) can0 1E5#46FD17800002E900
(1672162936.648863) can0 1EB#0000
(1672162936.649117) can0 1ED#0000000000000800
(1672162936.649274) can0 1EF#00000000
(1672162936.649565) can0 3C1#0765040000000000
(1672162936.649761) can0 3D1#1046000000000000
(1672162936.650017) can0 3E9#0000000000000000
(1672162936.650560) can0 1E1#00FF150020
(1672162936.652421) can0 2D1#030000000000
(1672162936.652943) can0 19D#00000000000000FF
(1672162936.653113) can0 1AF#000000
(1672162936.653353) can0 1F5#0F0F002100000300
(1672162936.653564) can0 4C9#40300000
(1672162936.657599) can0 0C9#0000000700000000
(1672162936.657867) can0 0C1#0000000000000000
(1672162936.658084) can0 0C5#0000000000000000
(1672162936.658264) can0 0C7#03FE0000
(1672162936.658442) can0 0F1#00040040
(1672162936.658666) can0 0F9#00004000000000FF
(1672162936.658915) can0 184#0002000001FE
(1672162936.659141) can0 189#4FFF0FFF300000FF
(1672162936.659365) can0 191#060008E108E10000
(1672162936.659593) can0 199#4FFF0E70F18F00FF
(1672162936.659837) can0 1A1#0010000000000000
(1672162936.660060) can0 1C7#0FFFAFFF03FF3F
(1672162936.660260) can0 1CD#07FF08017F
(1672162936.660556) can0 12A#47000000C05B3FFF
(1672162936.660736) can0 1C3#0600060000000000
(1672162936.660985) can0 1E5#46FD17A00002E800
(1672162936.661218) can0 1E9#0001000C00030000
(1672162936.661348) can0 1EB#0000
(1672162936.661615) can0 1ED#0000000000000800
