(1110000000.000000) can0 0F4#960C010204B10240
(1110000000.000001) can0 32D#0000042758010000
(1110000000.001020) can0 69E#0440047E1FC01542
(1110000000.001021) can0 125#9000401F41BE7960
(1110000000.002917) can0 2E1#0000000000000004
(1110000000.003938) can0 354#1FFF40000003B680
(1110000000.003939) can0 5E1#893FE00B0A000080
(1110000000.003940) can0 6E0#0000000000000000
(1110000000.003941) can0 162#00080003EA11F4CE
(1110000000.004957) can0 0A7#2010FA297125C0A0
(1110000000.007218) can0 4E7#0000001703520000
(1110000000.008251) can0 153#00000004000C0004
(1110000000.008253) can0 FFF#0000000000000000
(1110000000.008254) can0 295#0000000000000840
(1110000000.008255) can0 662#4F20000040000000
(1110000000.009250) can0 684#54D580194147501E
(1110000000.009251) can0 636#24760000EE89B000
(1110000000.009252) can0 00E#2065160208097564
(1110000000.009253) can0 2D7#100060D800000008
(1110000000.010272) can0 19C#041E201B820028F0
(1110000000.010273) can0 0D0#12790C60FA000000
(1110000000.010274) can0 107#0000000000000000
(1110000000.010275) can0 FFF#0000000000000000
(1110000000.011271) can0 033#0007D0000C8007D0
(1110000000.011272) can0 274#00F212FC307C86B9
(1110000000.011273) can0 125#9000401F41BE5B60
(1110000000.011274) can0 0C0#2000000000000000
(1110000000.012292) can0 3E4#00C8000005000000
(1110000000.012293) can0 3C1#7B551FBB392C692E
(1110000000.012294) can0 65C#40062283E0000000
(1110000000.012295) can0 577#000008000000013E
(1110000000.013277) can0 193#00080803E8680000
(1110000000.013278) can0 354#1FFF40000003B680
(1110000000.014302) can0 20E#4E2003A0003FEFF7
(1110000000.014303) can0 522#DF7FD13AC3888B9C
(1110000000.014304) can0 5E1#893FE00B0A000080
(1110000000.014305) can0 28B#0000000000000000
(1110000000.015319) can0 366#7FDDC8020147CE78
(1110000000.015320) can0 580#00000003F0880000
(1110000000.015321) can0 434#0382A0A1C1F19350
(1110000000.015322) can0 6E0#0000000000000000
(1110000000.016318) can0 0A7#2010FA297125C0A0
(1110000000.016319) can0 407#40015FF0C580FA20
(1110000000.016320) can0 498#84002000F6800006
(1110000000.016321) can0 230#870013AA6C000200
(1110000000.017340) can0 0D0#1A790C60F9000000
(1110000000.018376) can0 033#0007C8000CC007D0
(1110000000.018378) can0 5B3#0400000000000000
(1110000000.019376) can0 FFF#0000000000000000
(1110000000.019377) can0 00E#206516020809755E
(1110000000.020676) can0 69E#0440047E1FC01542
(1110000000.021687) can0 125#9000401F41BE3D60
(1110000000.022938) can0 2E1#0000000000000004
(1110000000.023937) can0 354#1FFF40000003A780
(1110000000.023938) can0 5E1#893FE00B0A000080
(1110000000.023939) can0 6E0#0000000000000000
(1110000000.023940) can0 162#00080003EA11F4CE
(1110000000.024956) can0 0A7#2010FA297125C0A0
(1110000000.027232) can0 153#00000004000C0004
(1110000000.028234) can0 662#4F20000040000000
(1110000000.028235) can0 19C#081A201B820028F0
(1110000000.028236) can0 0D0#22790C60F8000000
(1110000000.028237) can0 033#0007C0000D0007D0
(1110000000.029273) can0 274#00F214FA307C86B9
(1110000000.029289) can0 0C0#2000000000000000
(1110000000.029290) can0 00E#206516020809756A
(1110000000.030271) can0 107#0000000000000000
(1110000000.030272) can0 FFF#0000000000000000
(1110000000.030273) can0 0BA#06981E4410000C90
(1110000000.031290) can0 125#9000401F41BE1F60
(1110000000.032935) can0 354#1FFF400000041800
(1110000000.033937) can0 193#00080803E8680000
(1110000000.033938) can0 20E#4E2003A0003FEFF7
(1110000000.033939) can0 522#DF7FD13AC3108B9C
(1110000000.033939) can0 5E1#893FE00B0A000080
(1110000000.034958) can0 28B#0000000000000000
(1110000000.034959) can0 366#7FDDC8020147CE78
(1110000000.034960) can0 580#00000003E9080000
(1110000000.034961) can0 434#03AAA0A1C1F19350
(1110000000.035980) can0 6E0#0000000000000000
(1110000000.035981) can0 0A7#2010FA297125C0A0
(1110000000.035982) can0 03D#00003B8000000000
(1110000000.035983) can0 498#84002000F5800007
(1110000000.037000) can0 464#0002400000900F9E
(1110000000.037001) can0 4FD#11270A9835074988
(1110000000.037002) can0 230#860013AA6C000400
(1110000000.037003) can0 3C1#7B551FBAF8AD292E
(1110000000.038000) can0 295#0000000000000840
(1110000000.038001) can0 0D0#2A790C60F7000000
(1110000000.038002) can0 033#0007B8000D4007D0
(1110000000.039021) can0 FFF#0000000000000000
(1110000000.039022) can0 00E#2065160208097570
(1110000000.040670) can0 69E#0440047E1FC01542
(1110000000.041708) can0 125#9000401F41BFE160
(1110000000.042917) can0 2E1#0000000000000004
(1110000000.043940) can0 354#1FFF400000041800
(1110000000.043941) can0 5E1#893FE00B0A000080
(1110000000.043942) can0 6E0#0000000000000000
(1110000000.043943) can0 162#00080003EA11F4CE
(1110000000.044936) can0 0A7#2010FA297125C0A0

