(1070000000.000000) can0 0C0#6000000000000000
(1070000000.000002) can0 2B4#1B335D0000025800
(1070000000.001462) can0 00E#2050160208097D92
(1070000000.003247) can0 193#00080803E7380000
(1070000000.004266) can0 20E#4E1FE3ACBC3F5127
(1070000000.004267) can0 522#DF7FD0007C38001C
(1070000000.004268) can0 366#869DC8020147CE38
(1070000000.004268) can0 580#000000026B87F2C0
(1070000000.005266) can0 434#024000A1ED7F44B0
(1070000000.005267) can0 6E0#160015F7162B1628
(1070000000.005268) can0 498#83FA9FD44786640C
(1070000000.005269) can0 230#F8000002EC000E00
(1070000000.006228) can0 2E1#0000000000000004
(1070000000.006229) can0 354#208CC00000022300
(1070000000.006230) can0 5E1#893FE0070A03DC80
(1070000000.007233) can0 162#5B180F950A1284CC
(1070000000.007235) can0 0A7#00514224112090A0
(1070000000.008215) can0 0D0#6285046449198E00
(1070000000.008216) can0 125#9000271F26B91360
(1070000000.008217) can0 FFF#0000000000000000
(1070000000.008218) can0 FFF#0000000000000000
(1070000000.009233) can0 0F4#950C010204710240
(1070000000.009234) can0 033#2DBF02DD2F20E7D0
(1070000000.009235) can0 FFF#0000000000000000
(1070000000.011412) can0 00E#2050160208097D8C
(1070000000.012829) can0 107#0000000000000000
(1070000000.013905) can0 FFF#0000000000000000
(1070000000.013907) can0 6E0#160415FD16311623
(1070000000.013908) can0 0BA#06880A84100001E0
(1070000000.013909) can0 51B#281A3209B28180C1
(1070000000.014916) can0 32D#80000422B0010000
(1070000000.015927) can0 3C1#7B551FB1FAB4292E
(1070000000.015928) can0 354#208CC00000022300
(1070000000.016949) can0 5E1#893FE0070A03D880
(1070000000.016951) can0 28B#0000000000000000
(1070000000.016952) can0 0A7#00514224112090A0
(1070000000.016953) can0 03D#00017B0000000000
(1070000000.016954) can0 0D7#0000020080000000
(1070000000.017913) can0 153#00000000000C000A
(1070000000.017915) can0 69E#044004861FC014C2
(1070000000.017916) can0 125#9000271F26B8F560
(1070000000.018925) can0 295#0000000000001840
(1070000000.018926) can0 662#5120000040000000
(1070000000.018927) can0 19C#1B0A203B420028F0
(1070000000.018928) can0 0D0#6A85046648198E00
(1070000000.019923) can0 033#2D9EFADD2F60E7D0
(1070000000.019924) can0 274#58F20DEF107C8D97
(1070000000.019925) can0 0C0#6000000000000000
(1070000000.022329) can0 00E#2050160208097D48
(1070000000.022330) can0 1AA#90BEBD44A163E640
(1070000000.023381) can0 193#00080803E7380000
(1070000000.024386) can0 20E#4E1FDFACBEBF7127
(1070000000.024387) can0 522#DF7FD0007BC0001C
(1070000000.024388) can0 366#865DC8020147CE38
(1070000000.024389) can0 580#000000026C07F2B0
(1070000000.024390) can0 434#026000A34EE0B620
(1070000000.025391) can0 6E0#160D1602163A162C
(1070000000.025392) can0 498#83FA1FD03B8666CD
(1070000000.025393) can0 464#000240000090125C
(1070000000.025394) can0 230#F7000002EC001000
(1070000000.026402) can0 2E1#0000000000000004
(1070000000.026403) can0 354#208D000000021380
(1070000000.026405) can0 5E1#893FE0070A03D080
(1070000000.026423) can0 162#5B180F950A1284CC
(1070000000.027414) can0 0A7#00514124112090A0
(1070000000.027415) can0 0D0#728604603C199900
(1070000000.027416) can0 033#2DB6F2DD2FA0E7D0
(1070000000.028468) can0 125#9000271F26B8D760
(1070000000.028470) can0 577#000008000000013C
(1070000000.029535) can0 FFF#0000000000000000
(1070000000.031541) can0 00E#2050160208097D6C
(1070000000.032479) can0 585#0040000000020018
(1070000000.033553) can0 107#0000000000000000
(1070000000.033554) can0 FFF#0000000000000000
(1070000000.033555) can0 6E0#16121606162F1628
(1070000000.035678) can0 354#208D000000020480
(1070000000.036693) can0 5E1#893FE0070A03CC80
(1070000000.036694) can0 28B#0000000000000000
(1070000000.036695) can0 0A7#005141A4112090A0
(1070000000.036696) can0 1CA#3FF9FF8000000BD8
(1070000000.037672) can0 153#00000000000C000A
(1070000000.037673) can0 662#5120000040000000
(1070000000.037674) can0 69E#044004881FC014C2
(1070000000.038668) can0 125#9000271F26B8B960
(1070000000.038680) can0 19C#1F06203B420028F0
(1070000000.038681) can0 0D0#7A8604623B199900
(1070000000.038682) can0 033#2DAEEADD2FE0E7D0
(1070000000.039670) can0 274#58F20FED107C8D97
(1070000000.039671) can0 0C0#6000000000000000
(1070000000.039672) can0 4FD#11550A437110C988
(1070000000.040664) can0 3C1#7B551FB279B4A92E
(1070000000.041758) can0 00E#2050160208097D3C
(1070000000.043248) can0 193#00080803E7380000
(1070000000.044266) can0 20E#4E1FE3ACC23F9117
(1070000000.044268) can0 522#DF7FD0007B48001C
(1070000000.044269) can0 366#86DDC8020147CE38
(1070000000.044270) can0 580#000000026487F2B0
(1070000000.045263) can0 434#028AA0A4B0522790
(1070000000.045265) can0 6E0#160B16091633162F
(1070000000.045266) can0 498#83FA1FD03486684E
