(1671393184.372339) can0 185#1BFC
(1671393184.372527) can0 1C6#2CD32CA800034D60
(1671393184.372739) can0 1C7#0970F68D00003F
(1671393184.372996) can0 1E5#5C001930000000E1
(1671393184.373244) can0 1FC#FF98FF3000000305
(1671393184.373475) can0 189#8FFF0FFF2FFFFFF0
(1671393184.373714) can0 19D#80003FFE00166F15
(1671393184.373846) can0 1A6#04
(1671393184.374094) can0 1AF#00002011002500FF
(1671393184.374384) can0 1E1#000000000010F0
(1671393184.374538) can0 1F5#4606000400000900
(1671393184.375752) can0 4E1#4747323533313133
(1671393184.376679) can0 17D#222442FF0FF2
(1671393184.376857) can0 1CE#100007FE
(1671393184.377772) can0 0C7#00880C18
(1671393184.377973) can0 0AA#2C882C8500537B2C
(1671393184.378196) can0 0F9#00AA4021BA48CA1E
(1671393184.378400) can0 0BE#0C022C0591FB
(1671393184.378590) can0 0F1#340500400000
(1671393184.378846) can0 0C9#8016F86D00081800
(1671393184.379068) can0 1A1#0006414C4E4100
(1671393184.379191) can0 0D3#2C88
(1671393184.379365) can0 1A3#80
(1671393184.379551) can0 18E#0000007CB7CB07C5
(1671393184.379770) can0 1AA#0064D6737CB009
(1671393184.379997) can0 1ED#6140071A072070DE
(1671393184.380212) can0 1BA#07C567966E7C5A01
(1671393184.380488) can0 1C3#07CB07C500302C01
(1671393184.380698) can0 1C4#0062C74300000000
(1671393184.380945) can0 139#0000000000000000
(1671393184.381135) can0 1C5#2C852BDE2DA5
(1671393184.381374) can0 1DF#80000000
(1671393184.381547) can0 1F4#000000000000
(1671393184.381695) can0 287#430000
(1671393184.381914) can0 0C1#22B51DFCE33520B2
(1671393184.382166) can0 2C3#0812064D0000A900
(1671393184.382399) can0 0C5#20992247E1171F79
(1671393184.382613) can0 3C1#0765F70000000000
(1671393184.382846) can0 0D1#40067FF900FF00
(1671393184.383094) can0 3D1#014F85D5816A003F
(1671393184.383374) can0 1E5#5C001A5001000103
(1671393184.383497) can0 1F3#406000
(1671393184.383745) can0 1E9#0FF8000E00020000
(1671393184.383969) can0 3D3#008E00005FFE2C00
(1671393184.384193) can0 214#000000000000
(1671393184.384367) can0 3D9#0262000000
(1671393184.384623) can0 232#0000010000000000
(1671393184.384871) can0 3E9#1764016217700C1C
(1671393184.385830) can0 514#4743554B52454333
(1671393184.386772) can0 182#98C8010000000000
(1671393184.386999) can0 2F9#AB010008000031
(1671393184.388254) can0 52A#24243B3E3D41
(1671393184.390254) can0 0C7#009918E5
(1671393184.390473) can0 0AA#2C882C8502537A2C
(1671393184.390729) can0 0F9#00AA4021BA48CA1E
(1671393184.390927) can0 0BE#00022C0591FE
(1671393184.391124) can0 0F1#000500400000
(1671393184.391366) can0 0C9#8017016000081800
(1671393184.391576) can0 1CC#0000000000
(1671393184.391795) can0 0C1#32BC469EF33C4924
(1671393184.391918) can0 0D3#2C88
(1671393184.392133) can0 0C5#30A4476EF12347FD
(1671393184.392399) can0 18E#0000007CB7CB07C5
(1671393184.392623) can0 0D1#8002BFFC00FE00
(1671393184.392846) can0 1ED#61400718072870DE
(1671393184.392961) can0 185#1BF9
(1671393184.393196) can0 1C7#0970369000003F
(1671393184.393425) can0 32A#08C08F4C6B1C71F6
(1671393184.393674) can0 1E5#5C001A7001000123
(1671393184.393838) can0 348#0BAC0BB01B
(1671393184.395729) can0 52B#2D272D27
(1671393184.396729) can0 1C6#2CD32CA700434D63
(1671393184.396898) can0 1CE#180007FD
(1671393184.397087) can0 34A#0BAC0BAC09
(1671393184.398252) can0 0F1#1C0704400000
(1671393184.398481) can0 189#CFFF0FFF2FFEFFF0
(1671393184.398729) can0 19D#C0003FFD00167E15
(1671393184.398842) can0 1A6#04
(1671393184.399098) can0 1AF#00002011002500FF
(1671393184.399375) can0 1F5#4606000400000900
(1671393184.399572) can0 4C9#407D000010000000
(1671393184.399812) can0 77F#00000000000000
(1671393184.400805) can0 1E1#000000000114E0
(1671393184.401725) can0 0C1#02C36F3CC3426BD6
(1671393184.401973) can0 0C5#00B06FD3C12E6D18
(1671393184.402213) can0 0D1#C006FFF700FD00
(1671393184.402450) can0 0AA#2C882C850453792C
(1671393184.402673) can0 1E5#5C001A10010000C3
(1671393184.402871) can0 0BE#04022C0591FD
(1671393184.403035) can0 0C7#00A924F8
(1671393184.403292) can0 0C9#8017146700081800
(1671393184.403524) can0 0F9#00AA4021CF493C1E
(1671393184.403647) can0 0D3#2C88
(1671393184.403862) can0 1A1#0006414C4E4100
(1671393184.404119) can0 18E#0000007CB7CB07C5
(1671393184.404216) can0 1A3#80
(1671393184.404475) can0 1E9#0004000E00030000
(1671393184.404674) can0 1AA#0064D6737CB009
(1671393184.404897) can0 1ED#6140071A071870DE
(1671393184.405144) can0 1BA#07C567866E7C5A02
