(1672248609.059635) can0 0C1#3000000430000004
(1672248609.059905) can0 0C5#3000000430000004
(1672248609.060137) can0 184#000200000000
(1672248609.060360) can0 1C7#065CB9A200003F
(1672248609.060553) can0 1CD#0000000000
(1672248609.060730) can0 0F1#00020040
(1672248609.061002) can0 1E5#46FF28E00000D501
(1672248609.061106) can0 1F3#0000
(1672248609.061348) can0 1E9#0001000C0FFE0000
(1672248609.061803) can0 0C9#0000000A004008
(1672248609.062056) can0 191#065A065A065A0000
(1672248609.062276) can0 1A1#00100000000000
(1672248609.062527) can0 1C3#065A065A00000000
(1672248609.065511) can0 2F9#F000000000
(1672248609.065759) can0 348#00000000
(1672248609.066011) can0 0F9#0000400000000015
(1672248609.066183) can0 34A#00000000
(1672248609.066430) can0 199#8FFF0FFFEFFF00FF
(1672248609.066752) can0 19D#C0003FFD000000FF
(1672248609.067053) can0 1F5#0F0F000100000300
(1672248609.068834) can0 0C1#0000000400000004
(1672248609.069107) can0 0C5#0000000400000004
(1672248609.069354) can0 1E5#46FF28800000D801
(1672248609.069601) can0 3ED#8000000000FF0000
(1672248609.071134) can0 0F1#1C020040
(1672248609.073660) can0 1E1#00FD130060
(1672248609.074335) can0 0C9#0000000D004008
(1672248609.074577) can0 191#065A065A065A0000
(1672248609.077707) can0 0C1#1000000410000004
(1672248609.077904) can0 0C5#1000000410000004
(1672248609.078161) can0 0F9#0000400000000015
(1672248609.078355) can0 184#000300000000
(1672248609.078610) can0 199#CFFF0FFFEFFE00FF
(1672248609.078808) can0 1C7#065CF9A100003F
(1672248609.079031) can0 1CD#0000000000
(1672248609.079280) can0 1E5#46FF28A00000D701
(1672248609.079527) can0 1E9#0001000C0FFE0000
(1672248609.080635) can0 0F1#28030040
(1672248609.083410) can0 334#0000
(1672248609.086557) can0 0C1#2000000420000004
(1672248609.086780) can0 0C9#00000000004008
(1672248609.087031) can0 0C5#2000000420000004
(1672248609.087280) can0 191#065A065A065A0000
(1672248609.087525) can0 17D#04E8000078000100
(1672248609.087751) can0 1A1#00100000000000
(1672248609.088006) can0 17F#0000000000000000
(1672248609.088228) can0 1C3#065A065A00000000
(1672248609.088473) can0 1E5#46FF28C00000D601
(1672248609.088674) can0 2C3#065A06A00FFF
(1672248609.090661) can0 0F9#0000400000000015
(1672248609.090830) can0 0F1#34020040
(1672248609.091054) can0 199#0FFF0FFFF00100FF
(1672248609.091382) can0 19D#00000000000000FF
(1672248609.091706) can0 1F5#0F0F000100000300
(1672248609.092035) can0 4C9#402E000000000000
(1672248609.093531) can0 1F3#0000
(1672248609.095634) can0 0C1#3000000430000004
(1672248609.095879) can0 0C5#3000000430000004
(1672248609.096106) can0 184#000000000000
(1672248609.096347) can0 1C7#065C39A400003F
(1672248609.096552) can0 1CD#0000000000
(1672248609.096800) can0 1E5#46FF28E00000D501
(1672248609.097083) can0 1E9#0001000C0FFE0000
(1672248609.099282) can0 0C9#00000007004008
(1672248609.099530) can0 191#065A065A065A0000
(1672248609.100759) can0 0F1#00020040
(1672248609.101005) can0 1E1#0000100000
(1672248609.103207) can0 0F9#0000400000000015
(1672248609.103526) can0 199#4FFF0FFFF00000FF
(1672248609.104811) can0 0C1#0000000400000004
(1672248609.105057) can0 0C5#0000000400000004
(1672248609.105311) can0 1E5#46FF28800000D801
(1672248609.110727) can0 0F1#1C020040
(1672248609.111745) can0 0C9#0000000A004008
(1672248609.112016) can0 191#065A065A065A0000
(1672248609.112209) can0 1A1#00100000000000
(1672248609.112461) can0 1C3#065A065A00000000
(1672248609.113821) can0 0C1#1000000410000004
(1672248609.114066) can0 0C5#1000000410000004
(1672248609.114286) can0 184#000100000000
(1672248609.114538) can0 1C7#065C79A300003F
(1672248609.114739) can0 1CD#0000000000
(1672248609.115015) can0 1E5#46FF28A00000D701
(1672248609.115259) can0 1E9#0001000C0FFE0000
(1672248609.115462) can0 2F9#F800000000
(1672248609.115610) can0 334#0000
(1672248609.115782) can0 348#00000000
(1672248609.116039) can0 0F9#0000400000000015
(1672248609.116215) can0 34A#00000000
(1672248609.116463) can0 199#8FFF0FFFEFFF00FF
(1672248609.116771) can0 19D#40003FFF000000FF
(1672248609.117088) can0 1F5#0F0F000100000300
(1672248609.121172) can0 0F1#28020040
(1672248609.122496) can0 0C1#2000000420000004
(1672248609.122765) can0 0C5#2000000420000004
(1672248609.123012) can0 1E5#46FF28C00000D601
(1672248609.123693) can0 12A#4700000044593FFF
(1672248609.124271) can0 0C9#0000000D004008
(1672248609.124515) can0 191#065A065A065A0000
(1672248609.125516) can0 134#00001000
