(1479121434.850423) vcan0 2C0#D78D34D34D34D34D34D34D34 R
(1479121434.850977) vcan0 430#D34D34D34D34D34D34D34D34 R
(1479121434.851215) vcan0 4B1#D34D34D34D34D34D34D34D34 R
(1479121434.851463) vcan0 1F1#D34D34D34D34D34D34D34D34 R
(1479121434.851711) vcan0 153#D34D34D347DFD347DFD34D34 R
(1479121434.851963) vcan0 002#D34D34D34D34D34D34D34D1A R
(1479121434.852202) vcan0 18F#7DEDFAD34D34D34DDCD34D34 R
(1479121434.852443) vcan0 130#D37F34D347DFDB5F34D34F5D R
(1479121434.852687) vcan0 131#D34F34D34D34D9DEDFD34F7B R
(1479121434.852938) vcan0 140#D34D34D34D34D78DB4DB47BA R
(1479121434.853167) vcan0 260#D5BDB8DB8DF47DFF74E9EDFD R
(1479121434.853403) vcan0 2A0#EB4D34E9BD5DD35D3875DD34 R
(1479121434.853633) vcan0 316#D39DB8F38D3DDB8DB7D34EDD R
(1479121434.853867) vcan0 329#F3B6FDEDED78D76DB4D34D78 R
(1479121434.854108) vcan0 545#77CD34D34F1AD34D34D34D34 R
(1479121434.854290) vcan0 2B0#F1D7DFD34D3BD36D34D34D34 R
(1479121434.854947) vcan0 43F#D34E34EB47DFE5AE9CD3CD34 R
(1479121434.855198) vcan0 370#D34DB4D34D34D34D34D34D34 R
(1479121434.855439) vcan0 440#7DFD34D34D347DFE9CD3CD34 R
(1479121434.860027) vcan0 2C0#D78D34D34D34D34D34D34D34 R
(1479121434.860229) vcan0 350#D39DBCF78EBAE9DD34D346F6 R
(1479121434.860841) vcan0 4F0#D34D34D34F34D34E1FD37D78 R
(1479121434.861088) vcan0 002#D34D34D34D34D34D34D35D7B R
(1479121434.861332) vcan0 153#D34D34D347DFD347DFD34D34 R
(1479121434.861704) vcan0 316#D39DB8F38D3DDB8DB7D34EDD R
(1479121434.861945) vcan0 18F#7DEDFAD34D34D34DDCD34D34 R
(1479121434.862180) vcan0 260#D5BDB8DB8DF47DFF74E9ED3A R
(1479121434.862421) vcan0 130#D3AF34D347DFD77F34D35F5F R
(1479121434.862659) vcan0 131#D3DF34D34D34D5DEDFD35D9D R
(1479121434.862901) vcan0 140#D34D34D34D34D7ADB4DB57FC R
(1479121434.863140) vcan0 2A0#D34D34E9BD5DD35D3875DD34 R
(1479121434.863375) vcan0 329#F3B6FDEDED78D76DB4D34D78 R
(1479121434.863620) vcan0 545#77CD34D34F3DD34D34D34D34 R
(1479121434.864254) vcan0 2B0#F1D7DFD34D3BD77D34D34D34 R
(1479121434.864975) vcan0 43F#D34E34EB47DFE5AE9AD3CD34 R
(1479121434.865226) vcan0 370#D34DB4D34D34D34D34D34D34 R
(1479121434.865464) vcan0 440#7DFD34D34D347DFE9AD3CD34 R
(1479121434.869396) vcan0 5F0#7F8D34D34D34D34D34D34D34 R
(1479121434.869976) vcan0 2C0#D78D34D34D34D34D34D34D34 R
(1479121434.870212) vcan0 350#D39DBC6B8EBAE9DD34D34F36 R
(1479121434.870969) vcan0 430#D34D34D34D34D34D34D34D34 R
(1479121434.871216) vcan0 4B1#D34D34D34D34D34D34D34D34 R
(1479121434.871467) vcan0 1F1#D34D34D34D34D34D34D34D34 R
(1479121434.871712) vcan0 153#D34D34D347DFD347DFD34D34 R
(1479121434.871964) vcan0 002#D34D34D34D34D34D34D36DF4 R
(1479121434.872204) vcan0 18F#7DEDFAD34D34D34DDCD34D34 R
(1479121434.872437) vcan0 260#D5BDB8DB8DF47DFF74E9ED7B R
(1479121434.872674) vcan0 2A0#DB4D34E9BD5DD35D3875DD34 R
(1479121434.872908) vcan0 316#D39DB8EFCD3DDB8DB7D34EDD R
(1479121434.873141) vcan0 329#F3B6FDEDED78D76DB4D34D78 R
(1479121434.873382) vcan0 130#D39F34D347DFD34F34D3671B R
(1479121434.873623) vcan0 131#7DBEDFD34D34DB4EDFD366DD R
(1479121434.873871) vcan0 140#D34D34D34D34D7CD34DB66B7 R
(1479121434.874105) vcan0 545#77CE7DD34F3DD34D34D34D34 R
(1479121434.874284) vcan0 2B0#F1D7DFD34D3BEB8D34D34D34 R
(1479121434.874969) vcan0 43F#D34E34EB47DFE5AE9AD3CD34 R
(1479121434.875215) vcan0 370#D34DB4D34D34D34D34D34D34 R
(1479121434.875457) vcan0 440#7DFD34D34D347DFE9AD3CD34 R
(1479121434.880011) vcan0 2C0#D78D34D34D34D34D34D34D34 R
(1479121434.880214) vcan0 350#D39DBC6F8EBAE9DD34D34F76 R
(1479121434.880957) vcan0 002#D34D34D34D34D34D35D37EB5 R
(1479121434.881197) vcan0 153#D34D34D347DFD347DFD34D34 R
(1479121434.881438) vcan0 130#D35F34D347DFD38F34D376FD R
(1479121434.881679) vcan0 131#7F6EDFD34D34DF4EDFD37DFB R
(1479121434.881927) vcan0 140#D34D34D34D34D36DB4DB775C R
(1479121434.882173) vcan0 18F#7DEDFAD34D34D34DDCD34D34 R
(1479121434.882402) vcan0 260#D5BDB8DB8DF47DFF74EF8DB7 R
(1479121434.882634) vcan0 2A0#E34D34E9BD5DD35D3875DD34 R
(1479121434.882865) vcan0 316#D39DB8EFCD3DDB8DB7D34EDD R
(1479121434.883099) vcan0 329#F3B6FDEDED78D76DB4D34D78 R
(1479121434.883341) vcan0 4F0#D34D34D34F34D34E1FD37D78 R
(1479121434.883583) vcan0 545#77CD34D34F1BD34D34D34D34 R
(1479121434.884273) vcan0 2B0#F1D7DFD34D3BEF9D34D34D34 R
(1479121434.884963) vcan0 43F#D34E34EB47DFE5AE9AD3CD34 R
(1479121434.885213) vcan0 370#D34DB4D34D34D34D34D34D34 R
(1479121434.885455) vcan0 440#7DFD34D34D347DFE9AD3CD34 R
(1479121434.889964) vcan0 2C0#D78D34D34D34D34D34D34D34 R
(1479121434.890188) vcan0 350#D39DBC738EBAE9DD34D347B6 R
(1479121434.890997) vcan0 430#D34D34D34D34D34D34D34D34 R
(1479121434.891244) vcan0 4B1#D34D34D34D34D34D34D34D34 R
(1479121434.891494) vcan0 1F1#D34D34D34D34D34D34D34D34 R
(1479121434.891738) vcan0 153#D34D34D347DFD347DFD34D34 R
(1479121434.891987) vcan0 002#D34D34D34D34D34D35D38DF6 R
(1479121434.892229) vcan0 18F#7DEDFAD34D34D34DDCD34D34 R
(1479121434.892461) vcan0 260#D5BDB8DB8DF47DFF74EF8DF8 R
(1479121434.892697) vcan0 2A0#EB4D34E9BD5DD35D3875DD34 R
(1479121434.892929) vcan0 316#D39DB8EFCD3DDB8DB7D34EDD R
(1479121434.893163) vcan0 329#F3B6FDEDED78D76DB4D34D78 R
(1479121434.893402) vcan0 130#7DDEDFD347DFD1DF34D38EF6 R
(1479121434.893638) vcan0 131#79EEDFD34D34E3BEDFD386B8 R
(1479121434.893890) vcan0 140#D34D34D34D34D38DB6DB8D76 R
(1479121434.894123) vcan0 545#77CD34D34F1BD34D34D34D34 R
(1479121434.894312) vcan0 2B0#F1D7DFD34D3BE3AD34D34D34 R
(1479121434.894939) vcan0 43F#D34E34EB47DFE5AE9AD3CD34 R
(1479121434.895190) vcan0 370#D34DB4D34D34D34D34D34D34 R
(1479121434.895435) vcan0 440#7DFD34D34D347DFE9AD3CD34 R
(1479121434.899988) vcan0 2C0#D78D34D34D34D34D34D34D34 R
(1479121434.900189) vcan0 350#D39DBC778EBAE9DD34D347F6 R
(1479121434.900434) vcan0 5A0#D34D34D34D34D34D34D34D34 R
(1479121434.900804) vcan0 5A2#D38D346B9D37D34D34D34D34 R
