(1479121434.850202) can0 350#052884666D0000A2
(1479121434.850423) can0 2C0#1400000000000000
(1479121434.850977) can0 430#0000000000000000
(1479121434.851215) can0 4B1#0000000000000000
(1479121434.851463) can0 1F1#0000000000000000
(1479121434.851711) can0 153#000000FF00FF0000
(1479121434.851963) can0 002#000000000000000A
(1479121434.852202) can0 18F#FE360000003C0000
(1479121434.852443) can0 130#038000FF2180009D
(1479121434.852687) can0 131#008000002D7F0097
(1479121434.852938) can0 140#00000000142020E6
(1479121434.853167) can0 260#1B242430FF906E39
(1479121434.853403) can0 2A0#60006B1D0104DD00
(1479121434.853633) can0 316#052484092423007D
(1479121434.853867) can0 329#87B97E1412200014
(1479121434.854108) can0 545#D800008A00000000
(1479121434.854290) can0 2B0#8DFF000702
(1479121434.854947) can0 43F#004060FF5A6C0800
(1479121434.855198) can0 370#0020000000000000
(1479121434.855439) can0 440#FF000000FF6C0800
(1479121434.860027) can0 2C0#1400000000000000
(1479121434.860229) can0 350#052894666D0000B2
(1479121434.860841) can0 4F0#00000080004F0314
(1479121434.861088) can0 002#0000000000000117
(1479121434.861332) can0 153#000000FF00FF0000
(1479121434.861704) can0 316#052484092423007D
(1479121434.861945) can0 18F#FE360000003C0000
(1479121434.862180) can0 260#1B242430FF906E06
(1479121434.862421) can0 130#068000FF1380019F
(1479121434.862659) can0 131#098000001D7F012D
(1479121434.862901) can0 140#00000000162021F8
(1479121434.863140) can0 2A0#00006B1D0104DD00
(1479121434.863375) can0 329#87B97E1412200014
(1479121434.863620) can0 545#D800008900000000
(1479121434.864254) can0 2B0#8DFF000713
(1479121434.864975) can0 43F#004060FF5A6A0800
(1479121434.865226) can0 370#0020000000000000
(1479121434.865464) can0 440#FF000000FF6A0800
(1479121434.869396) can0 5F0#F400
(1479121434.869976) can0 2C0#1400000000000000
(1479121434.870212) can0 350#0528A4666D000082
(1479121434.870969) can0 430#0000000000000000
(1479121434.871216) can0 4B1#0000000000000000
(1479121434.871467) can0 1F1#0000000000000000
(1479121434.871712) can0 153#000000FF00FF0000
(1479121434.871964) can0 002#0000000000000230
(1479121434.872204) can0 18F#FE360000003C0000
(1479121434.872437) can0 260#1B242430FF906E17
(1479121434.872674) can0 2A0#20006B1D0104DD00
(1479121434.872908) can0 316#052478092423007D
(1479121434.873141) can0 329#87B97E1412200014
(1479121434.873382) can0 130#058000FF008002CB
(1479121434.873623) can0 131#FB7F0000207F02BD
(1479121434.873871) can0 140#00000000180022A3
(1479121434.874105) can0 545#D859008900000000
(1479121434.874284) can0 2B0#8DFF000764
(1479121434.874969) can0 43F#004060FF5A6A0800
(1479121434.875215) can0 370#0020000000000000
(1479121434.875457) can0 440#FF000000FF6A0800
(1479121434.880011) can0 2C0#1400000000000000
(1479121434.880214) can0 350#0528B4666D000092
(1479121434.880957) can0 002#0000000000010361
(1479121434.881197) can0 153#000000FF00FF0000
(1479121434.881438) can0 130#018000FF048003B9
(1479121434.881679) can0 131#F27F0000307F0337
(1479121434.881927) can0 140#00000000022023DC
(1479121434.882173) can0 18F#FE360000003C0000
(1479121434.882402) can0 260#1B242430FF907423
(1479121434.882634) can0 2A0#40006B1D0104DD00
(1479121434.882865) can0 316#052478092423007D
(1479121434.883099) can0 329#87B97E1412200014
(1479121434.883341) can0 4F0#00000080004F0314
(1479121434.883583) can0 545#D800008B00000000
(1479121434.884273) can0 2B0#8DFF000775
(1479121434.884963) can0 43F#004060FF5A6A0800
(1479121434.885213) can0 370#0020000000000000
(1479121434.885455) can0 440#FF000000FF6A0800
(1479121434.889964) can0 2C0#1400000000000000
(1479121434.890188) can0 350#0528C4666D0000E2
(1479121434.890997) can0 430#0000000000000000
(1479121434.891244) can0 4B1#0000000000000000
(1479121434.891494) can0 1F1#0000000000000000
(1479121434.891738) can0 153#000000FF00FF0000
(1479121434.891987) can0 002#0000000000010432
(1479121434.892229) can0 18F#FE360000003C0000
(1479121434.892461) can0 260#1B242430FF907434
(1479121434.892697) can0 2A0#60006B1D0104DD00
(1479121434.892929) can0 316#052478092423007D
(1479121434.893163) can0 329#87B97E1412200014
(1479121434.893402) can0 130#FD7F00FF0D800472
(1479121434.893638) can0 131#EE7F0000477F04A4
(1479121434.893890) can0 140#0000000004222412
(1479121434.894123) can0 545#D800008B00000000
(1479121434.894312) can0 2B0#8DFF000746
(1479121434.894939) can0 43F#004060FF5A6A0800
(1479121434.895190) can0 370#0020000000000000
(1479121434.895435) can0 440#FF000000FF6A0800
(1479121434.899988) can0 2C0#1400000000000000
(1479121434.900189) can0 350#0528D4666D0000F2
(1479121434.900434) can0 5A0#0000000000000000
